2022-12-30 18:25:56;Response to read coils (FC01), values: [False, True, False, False, False, False, False, False, True, True, False, False, False, True]
2022-12-30 18:25:56;Request to read Holding Registers (FC03), starting address: 0, quantity: 14
2022-12-30 18:25:56;---------Transmit: 01 03 00 00 00 0e c4 0e
2022-12-30 18:25:56;---------Receive: 01 03 1c 00 00 00 00 00 00 00 00 00 00 00 00 00 00 00 00 12 67 12 68 00 00 00 00 00 00 00 00 ef 75
2022-12-30 18:25:56;Response to Holding Registers (FC03), values: [0, 0, 0, 0, 0, 0, 0, 0, 4711, 4712, 0, 0, 0, 0]
2022-12-30 18:25:56;Request to write single coil (FC05), starting address: 1, value: 1
2022-12-30 18:25:56;---------Transmit: 01 05 00 01 ff 00 dd fa
2022-12-30 18:25:56;---------Receive: 01 05 00 01 ff 00 dd fa
2022-12-30 18:25:56;Request to write single coil (FC05), starting address: 8, value: 0
2022-12-30 18:25:56;---------Transmit: 01 05 00 08 00 00 4c 08
2022-12-30 18:25:56;---------Receive: 01 05 00 08 00 00 4c 08
2022-12-30 18:25:56;Request to write single register (FC06), starting address: 8, value: 4711
2022-12-30 18:25:56;---------Transmit: 01 06 00 08 12 67 45 42
2022-12-30 18:25:56;---------Receive: 01 06 00 08 12 67 45 42
2022-12-30 18:25:56;Request to write multiple registers (FC16), starting address: 8, values: [4711, 4712]
2022-12-30 18:25:56;---------Transmit: 01 10 00 08 00 02 04 12 67 12 68 4b e0
2022-12-30 18:25:56;---------Receive: 01 10 00 08 00 02 c0 0a
2022-12-30 18:25:56;Request to write multiple coil (FC15), starting address: 8, values: [True, True]
2022-12-30 18:25:56;---------Transmit: 01 0f 00 08 00 02 01 03 7f 57
2022-12-30 18:25:56;---------Receive: 01 0f 00 08 00 02 55 c8
2022-12-30 18:25:56;Request to read discrete inputs (FC02), starting address: 1, quantity: 1
2022-12-30 18:25:56;---------Transmit: 01 02 00 01 00 01 e8 0a
2022-12-30 18:25:56;---------Receive: 01 02 01 01 60 48
2022-12-30 18:25:56;Response to read discrete inputs (FC02), values: [True]
2022-12-30 18:25:56;Request to read coils (FC01), starting address: 0, quantity: 14
2022-12-30 18:25:56;---------Transmit: 01 01 00 00 00 0e bd ce
2022-12-30 18:25:57;---------Receive: 01 01 02 02 23 f9 45
2022-12-30 18:25:57;Response to read coils (FC01), values: [False, True, False, False, False, False, False, False, True, True, False, False, False, True]
2022-12-30 18:25:57;Request to read Holding Registers (FC03), starting address: 0, quantity: 14
2022-12-30 18:25:57;---------Transmit: 01 03 00 00 00 0e c4 0e
2022-12-30 18:25:57;---------Receive: 01 03 1c 00 00 00 00 00 00 00 00 00 00 00 00 00 00 00 00 12 67 12 68 00 00 00 00 00 00 00 00 ef 75
2022-12-30 18:25:57;Response to Holding Registers (FC03), values: [0, 0, 0, 0, 0, 0, 0, 0, 4711, 4712, 0, 0, 0, 0]
2022-12-30 18:25:57;Request to write single coil (FC05), starting address: 1, value: 1
2022-12-30 18:25:57;---------Transmit: 01 05 00 01 ff 00 dd fa
2022-12-30 18:25:57;---------Receive: 01 05 00 01 ff 00 dd fa
2022-12-30 18:25:57;Request to write single coil (FC05), starting address: 8, value: 0
2022-12-30 18:25:57;---------Transmit: 01 05 00 08 00 00 4c 08
2022-12-30 18:25:57;---------Receive: 01 05 00 08 00 00 4c 08
2022-12-30 18:25:57;Request to write single register (FC06), starting address: 8, value: 4711
2022-12-30 18:25:57;---------Transmit: 01 06 00 08 12 67 45 42
2022-12-30 18:25:57;---------Receive: 01 06 00 08 12 67 45 42
2022-12-30 18:25:57;Request to write multiple registers (FC16), starting address: 8, values: [4711, 4712]
2022-12-30 18:25:57;---------Transmit: 01 10 00 08 00 02 04 12 67 12 68 4b e0
2022-12-30 18:25:57;---------Receive: 01 10 00 08 00 02 c0 0a
2022-12-30 18:25:57;Request to write multiple coil (FC15), starting address: 8, values: [True, True]
2022-12-30 18:25:57;---------Transmit: 01 0f 00 08 00 02 01 03 7f 57
2022-12-30 18:25:57;---------Receive: 01 0f 00 08 00 02 55 c8
2022-12-30 18:25:57;Request to read discrete inputs (FC02), starting address: 1, quantity: 1
2022-12-30 18:25:57;---------Transmit: 01 02 00 01 00 01 e8 0a
2022-12-30 18:25:57;---------Receive: 01 02 01 01 60 48
2022-12-30 18:25:57;Response to read discrete inputs (FC02), values: [True]
2022-12-30 18:25:57;Request to read coils (FC01), starting address: 0, quantity: 14
2022-12-30 18:25:57;---------Transmit: 01 01 00 00 00 0e bd ce
2022-12-30 18:25:57;---------Receive: 01 01 02 02 23 f9 45
2022-12-30 18:25:57;Response to read coils (FC01), values: [False, True, False, False, False, False, False, False, True, True, False, False, False, True]
2022-12-30 18:25:57;Request to read Holding Registers (FC03), starting address: 0, quantity: 14
2022-12-30 18:25:57;---------Transmit: 01 03 00 00 00 0e c4 0e
2022-12-30 18:25:57;---------Receive: 01 03 1c 00 00 00 00 00 00 00 00 00 00 00 00 00 00 00 00 12 67 12 68 00 00 00 00 00 00 00 00 ef 75
2022-12-30 18:25:57;Response to Holding Registers (FC03), values: [0, 0, 0, 0, 0, 0, 0, 0, 4711, 4712, 0, 0, 0, 0]
2022-12-30 18:25:57;Request to write single coil (FC05), starting address: 1, value: 1
2022-12-30 18:25:57;---------Transmit: 01 05 00 01 ff 00 dd fa
2022-12-30 18:25:58;---------Receive: 01 05 00 01 ff 00 dd fa
2022-12-30 18:25:58;Request to write single coil (FC05), starting address: 8, value: 0
2022-12-30 18:25:58;---------Transmit: 01 05 00 08 00 00 4c 08
2022-12-30 18:25:58;---------Receive: 01 05 00 08 00 00 4c 08
2022-12-30 18:25:58;Request to write single register (FC06), starting address: 8, value: 4711
2022-12-30 18:25:58;---------Transmit: 01 06 00 08 12 67 45 42
2022-12-30 18:25:58;---------Receive: 01 06 00 08 12 67 45 42
2022-12-30 18:25:58;Request to write multiple registers (FC16), starting address: 8, values: [4711, 4712]
2022-12-30 18:25:58;---------Transmit: 01 10 00 08 00 02 04 12 67 12 68 4b e0
2022-12-30 18:25:58;---------Receive: 01 10 00 08 00 02 c0 0a
2022-12-30 18:25:58;Request to write multiple coil (FC15), starting address: 8, values: [True, True]
2022-12-30 18:25:58;---------Transmit: 01 0f 00 08 00 02 01 03 7f 57
2022-12-30 18:25:58;---------Receive: 01 0f 00 08 00 02 55 c8
2022-12-30 18:25:58;Request to read discrete inputs (FC02), starting address: 1, quantity: 1
2022-12-30 18:25:58;---------Transmit: 01 02 00 01 00 01 e8 0a
2022-12-30 18:25:58;---------Receive: 01 02 01 01 60 48
2022-12-30 18:25:58;Response to read discrete inputs (FC02), values: [True]
2022-12-30 18:25:58;Request to read coils (FC01), starting address: 0, quantity: 14
2022-12-30 18:25:58;---------Transmit: 01 01 00 00 00 0e bd ce
2022-12-30 18:25:58;---------Receive: 01 01 02 02 23 f9 45
2022-12-30 18:25:58;Response to read coils (FC01), values: [False, True, False, False, False, False, False, False, True, True, False, False, False, True]
2022-12-30 18:25:58;Request to read Holding Registers (FC03), starting address: 0, quantity: 14
2022-12-30 18:25:58;---------Transmit: 01 03 00 00 00 0e c4 0e
2022-12-30 18:25:58;---------Receive: 01 03 1c 00 00 00 00 00 00 00 00 00 00 00 00 00 00 00 00 12 67 12 68 00 00 00 00 00 00 00 00 ef 75
2022-12-30 18:25:58;Response to Holding Registers (FC03), values: [0, 0, 0, 0, 0, 0, 0, 0, 4711, 4712, 0, 0, 0, 0]
2022-12-30 18:25:58;Request to write single coil (FC05), starting address: 1, value: 1
2022-12-30 18:25:58;---------Transmit: 01 05 00 01 ff 00 dd fa
2022-12-30 18:25:58;---------Receive: 01 05 00 01 ff 00 dd fa
2022-12-30 18:25:58;Request to write single coil (FC05), starting address: 8, value: 0
2022-12-30 18:25:58;---------Transmit: 01 05 00 08 00 00 4c 08
2022-12-30 18:25:59;---------Receive: 01 05 00 08 00 00 4c 08
2022-12-30 18:25:59;Request to write single register (FC06), starting address: 8, value: 4711
2022-12-30 18:25:59;---------Transmit: 01 06 00 08 12 67 45 42
2022-12-30 18:25:59;---------Receive: 01 06 00 08 12 67 45 42
2022-12-30 18:25:59;Request to write multiple registers (FC16), starting address: 8, values: [4711, 4712]
2022-12-30 18:25:59;---------Transmit: 01 10 00 08 00 02 04 12 67 12 68 4b e0
2022-12-30 18:25:59;---------Receive: 01 10 00 08 00 02 c0 0a
2022-12-30 18:25:59;Request to write multiple coil (FC15), starting address: 8, values: [True, True]
2022-12-30 18:25:59;---------Transmit: 01 0f 00 08 00 02 01 03 7f 57
2022-12-30 18:25:59;---------Receive: 01 0f 00 08 00 02 55 c8
2022-12-30 18:25:59;Request to read discrete inputs (FC02), starting address: 1, quantity: 1
2022-12-30 18:25:59;---------Transmit: 01 02 00 01 00 01 e8 0a
2022-12-30 18:25:59;---------Receive: 01 02 01 01 60 48
2022-12-30 18:25:59;Response to read discrete inputs (FC02), values: [True]
2022-12-30 18:25:59;Request to read coils (FC01), starting address: 0, quantity: 14
2022-12-30 18:25:59;---------Transmit: 01 01 00 00 00 0e bd ce
2022-12-30 18:25:59;---------Receive: 01 01 02 02 23 f9 45
2022-12-30 18:25:59;Response to read coils (FC01), values: [False, True, False, False, False, False, False, False, True, True, False, False, False, True]
2022-12-30 18:25:59;Request to read Holding Registers (FC03), starting address: 0, quantity: 14
2022-12-30 18:25:59;---------Transmit: 01 03 00 00 00 0e c4 0e
2022-12-30 18:25:59;---------Receive: 01 03 1c 00 00 00 00 00 00 00 00 00 00 00 00 00 00 00 00 12 67 12 68 00 00 00 00 00 00 00 00 ef 75
2022-12-30 18:25:59;Response to Holding Registers (FC03), values: [0, 0, 0, 0, 0, 0, 0, 0, 4711, 4712, 0, 0, 0, 0]
2022-12-30 18:25:59;Request to write single coil (FC05), starting address: 1, value: 1
2022-12-30 18:25:59;---------Transmit: 01 05 00 01 ff 00 dd fa
2022-12-30 18:25:59;---------Receive: 01 05 00 01 ff 00 dd fa
2022-12-30 18:25:59;Request to write single coil (FC05), starting address: 8, value: 0
2022-12-30 18:25:59;---------Transmit: 01 05 00 08 00 00 4c 08
2022-12-30 18:25:59;---------Receive: 01 05 00 08 00 00 4c 08
2022-12-30 18:25:59;Request to write single register (FC06), starting address: 8, value: 4711
2022-12-30 18:25:59;---------Transmit: 01 06 00 08 12 67 45 42
2022-12-30 18:25:59;---------Receive: 01 06 00 08 12 67 45 42
2022-12-30 18:25:59;Request to write multiple registers (FC16), starting address: 8, values: [4711, 4712]
2022-12-30 18:25:59;---------Transmit: 01 10 00 08 00 02 04 12 67 12 68 4b e0
2022-12-30 18:26:00;---------Receive: 01 10 00 08 00 02 c0 0a
2022-12-30 18:26:00;Request to write multiple coil (FC15), starting address: 8, values: [True, True]
2022-12-30 18:26:00;---------Transmit: 01 0f 00 08 00 02 01 03 7f 57
2022-12-30 18:26:00;---------Receive: 01 0f 00 08 00 02 55 c8
2022-12-30 18:26:00;Request to read discrete inputs (FC02), starting address: 1, quantity: 1
2022-12-30 18:26:00;---------Transmit: 01 02 00 01 00 01 e8 0a
2022-12-30 18:26:00;---------Receive: 01 02 01 01 60 48
2022-12-30 18:26:00;Response to read discrete inputs (FC02), values: [True]
2022-12-30 18:26:00;Request to read coils (FC01), starting address: 0, quantity: 14
2022-12-30 18:26:00;---------Transmit: 01 01 00 00 00 0e bd ce
2022-12-30 18:26:00;---------Receive: 01 01 02 02 23 f9 45
2022-12-30 18:26:00;Response to read coils (FC01), values: [False, True, False, False, False, False, False, False, True, True, False, False, False, True]
2022-12-30 18:26:00;Request to read Holding Registers (FC03), starting address: 0, quantity: 14
2022-12-30 18:26:00;---------Transmit: 01 03 00 00 00 0e c4 0e
2022-12-30 18:26:00;---------Receive: 01 03 1c 00 00 00 00 00 00 00 00 00 00 00 00 00 00 00 00 12 67 12 68 00 00 00 00 00 00 00 00 ef 75
2022-12-30 18:26:00;Response to Holding Registers (FC03), values: [0, 0, 0, 0, 0, 0, 0, 0, 4711, 4712, 0, 0, 0, 0]
2022-12-30 18:26:00;Request to write single coil (FC05), starting address: 1, value: 1
2022-12-30 18:26:00;---------Transmit: 01 05 00 01 ff 00 dd fa
2022-12-30 18:26:00;---------Receive: 01 05 00 01 ff 00 dd fa
2022-12-30 18:26:00;Request to write single coil (FC05), starting address: 8, value: 0
2022-12-30 18:26:00;---------Transmit: 01 05 00 08 00 00 4c 08
2022-12-30 18:26:00;---------Receive: 01 05 00 08 00 00 4c 08
2022-12-30 18:26:00;Request to write single register (FC06), starting address: 8, value: 4711
2022-12-30 18:26:00;---------Transmit: 01 06 00 08 12 67 45 42
2022-12-30 18:26:00;---------Receive: 01 06 00 08 12 67 45 42
2022-12-30 18:26:00;Request to write multiple registers (FC16), starting address: 8, values: [4711, 4712]
2022-12-30 18:26:00;---------Transmit: 01 10 00 08 00 02 04 12 67 12 68 4b e0
2022-12-30 18:26:00;---------Receive: 01 10 00 08 00 02 c0 0a
2022-12-30 18:26:00;Request to write multiple coil (FC15), starting address: 8, values: [True, True]
2022-12-30 18:26:00;---------Transmit: 01 0f 00 08 00 02 01 03 7f 57
2022-12-30 18:26:01;---------Receive: 01 0f 00 08 00 02 55 c8
2022-12-30 18:26:01;Request to read discrete inputs (FC02), starting address: 1, quantity: 1
2022-12-30 18:26:01;---------Transmit: 01 02 00 01 00 01 e8 0a
2022-12-30 18:26:01;---------Receive: 01 02 01 01 60 48
2022-12-30 18:26:01;Response to read discrete inputs (FC02), values: [True]
2022-12-30 18:26:01;Request to read coils (FC01), starting address: 0, quantity: 14
2022-12-30 18:26:01;---------Transmit: 01 01 00 00 00 0e bd ce
2022-12-30 18:26:01;---------Receive: 01 01 02 02 23 f9 45
2022-12-30 18:26:01;Response to read coils (FC01), values: [False, True, False, False, False, False, False, False, True, True, False, False, False, True]
2022-12-30 18:26:01;Request to read Holding Registers (FC03), starting address: 0, quantity: 14
2022-12-30 18:26:01;---------Transmit: 01 03 00 00 00 0e c4 0e
2022-12-30 18:26:01;---------Receive: 01 03 1c 00 00 00 00 00 00 00 00 00 00 00 00 00 00 00 00 12 67 12 68 00 00 00 00 00 00 00 00 ef 75
2022-12-30 18:26:01;Response to Holding Registers (FC03), values: [0, 0, 0, 0, 0, 0, 0, 0, 4711, 4712, 0, 0, 0, 0]
2022-12-30 18:26:01;Request to write single coil (FC05), starting address: 1, value: 1
2022-12-30 18:26:01;---------Transmit: 01 05 00 01 ff 00 dd fa
2022-12-30 18:26:01;---------Receive: 01 05 00 01 ff 00 dd fa
2022-12-30 18:26:01;Request to write single coil (FC05), starting address: 8, value: 0
2022-12-30 18:26:01;---------Transmit: 01 05 00 08 00 00 4c 08
2022-12-30 18:26:01;---------Receive: 01 05 00 08 00 00 4c 08
2022-12-30 18:26:01;Request to write single register (FC06), starting address: 8, value: 4711
2022-12-30 18:26:01;---------Transmit: 01 06 00 08 12 67 45 42
2022-12-30 18:26:01;---------Receive: 01 06 00 08 12 67 45 42
2022-12-30 18:26:01;Request to write multiple registers (FC16), starting address: 8, values: [4711, 4712]
2022-12-30 18:26:01;---------Transmit: 01 10 00 08 00 02 04 12 67 12 68 4b e0
2022-12-30 18:26:01;---------Receive: 01 10 00 08 00 02 c0 0a
2022-12-30 18:26:01;Request to write multiple coil (FC15), starting address: 8, values: [True, True]
2022-12-30 18:26:01;---------Transmit: 01 0f 00 08 00 02 01 03 7f 57
2022-12-30 18:26:01;---------Receive: 01 0f 00 08 00 02 55 c8
2022-12-30 18:26:01;Request to read discrete inputs (FC02), starting address: 1, quantity: 1
2022-12-30 18:26:01;---------Transmit: 01 02 00 01 00 01 e8 0a
2022-12-30 18:26:01;---------Receive: 01 02 01 01 60 48
2022-12-30 18:26:01;Response to read discrete inputs (FC02), values: [True]
2022-12-30 18:26:01;Request to read coils (FC01), starting address: 0, quantity: 14
2022-12-30 18:26:01;---------Transmit: 01 01 00 00 00 0e bd ce
2022-12-30 18:26:02;---------Receive: 01 01 02 02 23 f9 45
2022-12-30 18:26:02;Response to read coils (FC01), values: [False, True, False, False, False, False, False, False, True, True, False, False, False, True]
2022-12-30 18:26:02;Request to read Holding Registers (FC03), starting address: 0, quantity: 14
2022-12-30 18:26:02;---------Transmit: 01 03 00 00 00 0e c4 0e
2022-12-30 18:26:02;---------Receive: 01 03 1c 00 00 00 00 00 00 00 00 00 00 00 00 00 00 00 00 12 67 12 68 00 00 00 00 00 00 00 00 ef 75
2022-12-30 18:26:02;Response to Holding Registers (FC03), values: [0, 0, 0, 0, 0, 0, 0, 0, 4711, 4712, 0, 0, 0, 0]
2022-12-30 18:26:02;Request to write single coil (FC05), starting address: 1, value: 1
2022-12-30 18:26:02;---------Transmit: 01 05 00 01 ff 00 dd fa
2022-12-30 18:26:02;---------Receive: 01 05 00 01 ff 00 dd fa
2022-12-30 18:26:02;Request to write single coil (FC05), starting address: 8, value: 0
2022-12-30 18:26:02;---------Transmit: 01 05 00 08 00 00 4c 08
2022-12-30 18:26:02;---------Receive: 01 05 00 08 00 00 4c 08
2022-12-30 18:26:02;Request to write single register (FC06), starting address: 8, value: 4711
2022-12-30 18:26:02;---------Transmit: 01 06 00 08 12 67 45 42
2022-12-30 18:26:02;---------Receive: 01 06 00 08 12 67 45 42
2022-12-30 18:26:02;Request to write multiple registers (FC16), starting address: 8, values: [4711, 4712]
2022-12-30 18:26:02;---------Transmit: 01 10 00 08 00 02 04 12 67 12 68 4b e0
2022-12-30 18:26:02;---------Receive: 01 10 00 08 00 02 c0 0a
2022-12-30 18:26:02;Request to write multiple coil (FC15), starting address: 8, values: [True, True]
2022-12-30 18:26:02;---------Transmit: 01 0f 00 08 00 02 01 03 7f 57
2022-12-30 18:26:02;---------Receive: 01 0f 00 08 00 02 55 c8
2022-12-30 18:26:02;Request to read discrete inputs (FC02), starting address: 1, quantity: 1
2022-12-30 18:26:02;---------Transmit: 01 02 00 01 00 01 e8 0a
2022-12-30 18:26:02;---------Receive: 01 02 01 01 60 48
2022-12-30 18:26:02;Response to read discrete inputs (FC02), values: [True]
2022-12-30 18:26:02;Request to read coils (FC01), starting address: 0, quantity: 14
2022-12-30 18:26:02;---------Transmit: 01 01 00 00 00 0e bd ce
2022-12-30 18:26:02;---------Receive: 01 01 02 02 23 f9 45
2022-12-30 18:26:02;Response to read coils (FC01), values: [False, True, False, False, False, False, False, False, True, True, False, False, False, True]
2022-12-30 18:26:02;Request to read Holding Registers (FC03), starting address: 0, quantity: 14
2022-12-30 18:26:02;---------Transmit: 01 03 00 00 00 0e c4 0e
2022-12-30 18:26:03;---------Receive: 01 03 1c 00 00 00 00 00 00 00 00 00 00 00 00 00 00 00 00 12 67 12 68 00 00 00 00 00 00 00 00 ef 75
2022-12-30 18:26:03;Response to Holding Registers (FC03), values: [0, 0, 0, 0, 0, 0, 0, 0, 4711, 4712, 0, 0, 0, 0]
2022-12-30 18:26:03;Request to write single coil (FC05), starting address: 1, value: 1
2022-12-30 18:26:03;---------Transmit: 01 05 00 01 ff 00 dd fa
2022-12-30 18:26:03;---------Receive: 01 05 00 01 ff 00 dd fa
2022-12-30 18:26:03;Request to write single coil (FC05), starting address: 8, value: 0
2022-12-30 18:26:03;---------Transmit: 01 05 00 08 00 00 4c 08
2022-12-30 18:26:03;---------Receive: 01 05 00 08 00 00 4c 08
2022-12-30 18:26:03;Request to write single register (FC06), starting address: 8, value: 4711
2022-12-30 18:26:03;---------Transmit: 01 06 00 08 12 67 45 42
2022-12-30 18:26:03;---------Receive: 01 06 00 08 12 67 45 42
2022-12-30 18:26:03;Request to write multiple registers (FC16), starting address: 8, values: [4711, 4712]
2022-12-30 18:26:03;---------Transmit: 01 10 00 08 00 02 04 12 67 12 68 4b e0
2022-12-30 18:26:03;---------Receive: 01 10 00 08 00 02 c0 0a
2022-12-30 18:26:03;Request to write multiple coil (FC15), starting address: 8, values: [True, True]
2022-12-30 18:26:03;---------Transmit: 01 0f 00 08 00 02 01 03 7f 57
2022-12-30 18:26:03;---------Receive: 01 0f 00 08 00 02 55 c8
2022-12-30 18:26:03;Request to read discrete inputs (FC02), starting address: 1, quantity: 1
2022-12-30 18:26:03;---------Transmit: 01 02 00 01 00 01 e8 0a
2022-12-30 18:26:03;---------Receive: 01 02 01 01 60 48
2022-12-30 18:26:03;Response to read discrete inputs (FC02), values: [True]
2022-12-30 18:26:03;Request to read coils (FC01), starting address: 0, quantity: 14
2022-12-30 18:26:03;---------Transmit: 01 01 00 00 00 0e bd ce
2022-12-30 18:26:03;---------Receive: 01 01 02 02 23 f9 45
2022-12-30 18:26:03;Response to read coils (FC01), values: [False, True, False, False, False, False, False, False, True, True, False, False, False, True]
2022-12-30 18:26:03;Request to read Holding Registers (FC03), starting address: 0, quantity: 14
2022-12-30 18:26:03;---------Transmit: 01 03 00 00 00 0e c4 0e
2022-12-30 18:26:03;---------Receive: 01 03 1c 00 00 00 00 00 00 00 00 00 00 00 00 00 00 00 00 12 67 12 68 00 00 00 00 00 00 00 00 ef 75
2022-12-30 18:26:03;Response to Holding Registers (FC03), values: [0, 0, 0, 0, 0, 0, 0, 0, 4711, 4712, 0, 0, 0, 0]
2022-12-30 18:26:03;Request to write single coil (FC05), starting address: 1, value: 1
2022-12-30 18:26:03;---------Transmit: 01 05 00 01 ff 00 dd fa
2022-12-30 18:26:03;---------Receive: 01 05 00 01 ff 00 dd fa
2022-12-30 18:26:03;Request to write single coil (FC05), starting address: 8, value: 0
2022-12-30 18:26:03;---------Transmit: 01 05 00 08 00 00 4c 08
2022-12-30 18:26:04;---------Receive: 01 05 00 08 00 00 4c 08
2022-12-30 18:26:04;Request to write single register (FC06), starting address: 8, value: 4711
2022-12-30 18:26:04;---------Transmit: 01 06 00 08 12 67 45 42
2022-12-30 18:26:04;---------Receive: 01 06 00 08 12 67 45 42
2022-12-30 18:26:04;Request to write multiple registers (FC16), starting address: 8, values: [4711, 4712]
2022-12-30 18:26:04;---------Transmit: 01 10 00 08 00 02 04 12 67 12 68 4b e0
2022-12-30 18:26:04;---------Receive: 01 10 00 08 00 02 c0 0a
2022-12-30 18:26:04;Request to write multiple coil (FC15), starting address: 8, values: [True, True]
2022-12-30 18:26:04;---------Transmit: 01 0f 00 08 00 02 01 03 7f 57
2022-12-30 18:26:04;---------Receive: 01 0f 00 08 00 02 55 c8
2022-12-30 18:26:04;Request to read discrete inputs (FC02), starting address: 1, quantity: 1
2022-12-30 18:26:04;---------Transmit: 01 02 00 01 00 01 e8 0a
2022-12-30 18:26:04;---------Receive: 01 02 01 01 60 48
2022-12-30 18:26:04;Response to read discrete inputs (FC02), values: [True]
2022-12-30 18:26:04;Request to read coils (FC01), starting address: 0, quantity: 14
2022-12-30 18:26:04;---------Transmit: 01 01 00 00 00 0e bd ce
2022-12-30 18:26:04;---------Receive: 01 01 02 02 23 f9 45
2022-12-30 18:26:04;Response to read coils (FC01), values: [False, True, False, False, False, False, False, False, True, True, False, False, False, True]
2022-12-30 18:26:04;Request to read Holding Registers (FC03), starting address: 0, quantity: 14
2022-12-30 18:26:04;---------Transmit: 01 03 00 00 00 0e c4 0e
2022-12-30 18:26:04;---------Receive: 01 03 1c 00 00 00 00 00 00 00 00 00 00 00 00 00 00 00 00 12 67 12 68 00 00 00 00 00 00 00 00 ef 75
2022-12-30 18:26:04;Response to Holding Registers (FC03), values: [0, 0, 0, 0, 0, 0, 0, 0, 4711, 4712, 0, 0, 0, 0]
2022-12-30 18:26:04;Request to write single coil (FC05), starting address: 1, value: 1
2022-12-30 18:26:04;---------Transmit: 01 05 00 01 ff 00 dd fa
2022-12-30 18:26:04;---------Receive: 01 05 00 01 ff 00 dd fa
2022-12-30 18:26:04;Request to write single coil (FC05), starting address: 8, value: 0
2022-12-30 18:26:04;---------Transmit: 01 05 00 08 00 00 4c 08
2022-12-30 18:26:04;---------Receive: 01 05 00 08 00 00 4c 08
2022-12-30 18:26:04;Request to write single register (FC06), starting address: 8, value: 4711
2022-12-30 18:26:04;---------Transmit: 01 06 00 08 12 67 45 42
2022-12-30 18:26:05;---------Receive: 01 06 00 08 12 67 45 42
2022-12-30 18:26:05;Request to write multiple registers (FC16), starting address: 8, values: [4711, 4712]
2022-12-30 18:26:05;---------Transmit: 01 10 00 08 00 02 04 12 67 12 68 4b e0
2022-12-30 18:26:05;---------Receive: 01 10 00 08 00 02 c0 0a
2022-12-30 18:26:05;Request to write multiple coil (FC15), starting address: 8, values: [True, True]
2022-12-30 18:26:05;---------Transmit: 01 0f 00 08 00 02 01 03 7f 57
2022-12-30 18:26:05;---------Receive: 01 0f 00 08 00 02 55 c8
2022-12-30 18:26:05;Request to read discrete inputs (FC02), starting address: 1, quantity: 1
2022-12-30 18:26:05;---------Transmit: 01 02 00 01 00 01 e8 0a
2022-12-30 18:26:05;---------Receive: 01 02 01 01 60 48
2022-12-30 18:26:05;Response to read discrete inputs (FC02), values: [True]
2022-12-30 18:26:05;Request to read coils (FC01), starting address: 0, quantity: 14
2022-12-30 18:26:05;---------Transmit: 01 01 00 00 00 0e bd ce
2022-12-30 18:26:05;---------Receive: 01 01 02 02 23 f9 45
2022-12-30 18:26:05;Response to read coils (FC01), values: [False, True, False, False, False, False, False, False, True, True, False, False, False, True]
2022-12-30 18:26:05;Request to read Holding Registers (FC03), starting address: 0, quantity: 14
2022-12-30 18:26:05;---------Transmit: 01 03 00 00 00 0e c4 0e
2022-12-30 18:26:05;---------Receive: 01 03 1c 00 00 00 00 00 00 00 00 00 00 00 00 00 00 00 00 12 67 12 68 00 00 00 00 00 00 00 00 ef 75
2022-12-30 18:26:05;Response to Holding Registers (FC03), values: [0, 0, 0, 0, 0, 0, 0, 0, 4711, 4712, 0, 0, 0, 0]
2022-12-30 18:26:05;Request to write single coil (FC05), starting address: 1, value: 1
2022-12-30 18:26:05;---------Transmit: 01 05 00 01 ff 00 dd fa
2022-12-30 18:26:05;---------Receive: 01 05 00 01 ff 00 dd fa
2022-12-30 18:26:05;Request to write single coil (FC05), starting address: 8, value: 0
2022-12-30 18:26:05;---------Transmit: 01 05 00 08 00 00 4c 08
2022-12-30 18:26:05;---------Receive: 01 05 00 08 00 00 4c 08
